--- file type: CFG ---
ДАГЭНЕРГО ЦЭС ВЛ-29,504,2013
104,8A,96D
1,Ua_напряжение_ВЛ-29,A,напряжение   ВЛ-29,kV,0.80233319,0,0,-512,512,3300.0000,1,P
2,Ub_напряжение_ВЛ-29,B,напряжение   ВЛ-29,kV,0.80695760,0,117,-512,512,3300.0000,1,P
3,Uc_напряжение_ВЛ-29,C,напряжение   ВЛ-29,kV,0.80233319,0,262,-512,512,3300.0000,1,P
4,3Uo_напряжение_ВЛ-29,N,напряжение   ВЛ-29,kV,0.61078016,0,382,-512,512,1907.5000,1,P
5,Ia_токи_ВЛ-29,A,токи   ВЛ-29,kA,0.03796547,0,1388,-512,512,2000.0000,1,P
6,Ib_токи_ВЛ-29,B,токи   ВЛ-29,kA,0.03822199,0,1643,-512,512,2000.0000,1,P
7,Ic_токи_ВЛ-29,C,токи   ВЛ-29,kA,0.03796547,0,1629,-512,512,2000.0000,1,P
8,3Io_токи_ВЛ-29,N,токи   ВЛ-29,kA,0.04385158,0,1954,-512,512,2000.0000,1,P
1,Uпрд_дискреты_ПДЭ2003,,дискреты   ПДЭ2003,0
2,Uпрм_дискреты_ПДЭ2003,,дискреты   ПДЭ2003,0
3,Пуск Прд_дискреты_ПДЭ2003,,дискреты   ПДЭ2003,0
4,Пуск Откл_дискреты_ПДЭ2003,,дискреты   ПДЭ2003,0
5,Откл_дискреты_ПДЭ2003,,дискреты   ПДЭ2003,0
6,Откл Опроб_дискреты_ПДЭ2003,,дискреты   ПДЭ2003,0
7,Работа защиты_дискреты_ПДЭ2003,,дискреты   ПДЭ2003,0
8,Сраб II зоны с меньш выд врем_дискреты_ДЗ-503,,дискреты   ДЗ-503,0
9,Пуск II зоны_дискреты_ДЗ-503,,дискреты   ДЗ-503,0
10,Пуск III зоны_дискреты_ДЗ-503,,дискреты   ДЗ-503,0
11,Пуск I зоны с выд времени_дискреты_ДЗ-503,,дискреты   ДЗ-503,0
12,Сраб II зоны с больш выд врем_дискреты_ДЗ-503,,дискреты   ДЗ-503,0
13,Автом ускорение II зоны_дискреты_ДЗ-503,,дискреты   ДЗ-503,0
14,Пуск_блокировки_при_качаниях_дискреты_ДЗ-503,,дискреты   ДЗ-503,0
15,Сраб III зоны_дискреты_ДЗ-503,,дискреты   ДЗ-503,0
16,Опер ускор II зоны_дискреты_ДЗ-503,,дискреты   ДЗ-503,0
17,Срабат I зоны без выд врем_дискреты_ДЗ-503,,дискреты   ДЗ-503,0
18,Сраб  I ст  ЗЗ_дискреты_Рез. защита ПЗ-273,,дискреты   Рез. защита ПЗ-273,0
19,Сраб  МФО_дискреты_Рез. защита ПЗ-273,,дискреты   Рез. защита ПЗ-273,0
20,Пуск 2 ст  ЗЗ_дискреты_Рез. защита ПЗ-273,,дискреты   Рез. защита ПЗ-273,0
21,Пуск 3 ст  ЗЗ_дискреты_Рез. защита ПЗ-273,,дискреты   Рез. защита ПЗ-273,0
22,Пуск 4 ст  ЗЗ_дискреты_Рез. защита ПЗ-273,,дискреты   Рез. защита ПЗ-273,0
23,Сраб  2 ст ЗЗ_дискреты_Рез. защита ПЗ-273,,дискреты   Рез. защита ПЗ-273,0
24,Сраб. 3 ст. ЗЗ_дискреты_Рез. защита ПЗ-273,,дискреты   Рез. защита ПЗ-273,0
25,Пуск 1к ПРД АКАП ВЛ-29_дискреты_Рез. защита ПЗ-273,,дискреты   Рез. защита ПЗ-273,0
26,Пуск 2к ПРД АКАП ВЛ-29_дискреты_Рез. защита ПЗ-273,,дискреты   Рез. защита ПЗ-273,0
27,Пуск 3к ПРД АКАП ВЛ-29_дискреты_Рез. защита ПЗ-273,,дискреты   Рез. защита ПЗ-273,0
28,Пуск 16к ПРД АКАП ВЛ-29_дискреты_Рез. защита ПЗ-273,,дискреты   Рез. защита ПЗ-273,0
29,Сраб. 4ст. ЗЗ_дискреты_Рез. защита ПЗ-273,,дискреты   Рез. защита ПЗ-273,0
30,Сраб. ЗНР_дискреты_Рез. защита ПЗ-273,,дискреты   Рез. защита ПЗ-273,0
31,Работа 1 группы вых. реле_дискреты_Рез. защита ПЗ-273,,дискреты   Рез. защита ПЗ-273,0
32,Сраб I зоны с выд врем_дискреты_ДЗ-503,,дискреты   ДЗ-503,0
33,Авт. ускорение 3 ст. ЗЗ_дискреты_Рез. защита ПЗ-273,,дискреты   Рез. защита ПЗ-273,0
34,Работа 2 группы вых. реле_дискреты_Рез. защита ПЗ-273,,дискреты   Рез. защита ПЗ-273,0
35,Избиратель ф А_дискреты_АПВ-503,,дискреты   АПВ-503,0
36,Избиратель ф В_дискреты_АПВ-503,,дискреты   АПВ-503,0
37,Избиратель ф С_дискреты_АПВ-503,,дискреты   АПВ-503,0
38,Откл. ф.А через ОАПВ_дискреты_АПВ-503,,дискреты   АПВ-503,0
39,Откл. ф.В через ОАПВ_дискреты_АПВ-503,,дискреты   АПВ-503,0
40,Откл. ф.С через ОАПВ_дискреты_АПВ-503,,дискреты   АПВ-503,0
41,Пуск ОАПВ_дискреты_АПВ-503,,дискреты   АПВ-503,0
42,Откл. 3х фаз через АПВ_дискреты_АПВ-503,,дискреты   АПВ-503,0
43,Запрет ТАПВ В-310_дискреты_АПВ-503,,дискреты   АПВ-503,0
44,Запрет ТАПВ В-311_дискреты_АПВ-503,,дискреты   АПВ-503,0
45,Вкл. В-310 от ОАПВ_дискреты_АПВ-503,,дискреты   АПВ-503,0
46,Пуск ТАПВ В-310_дискреты_АПВ-503,,дискреты   АПВ-503,0
47,Пуск ТАПВ В-311_дискреты_АПВ-503,,дискреты   АПВ-503,0
48,Вкл. В-310 от ТАПВ_дискреты_АПВ-503,,дискреты   АПВ-503,0
49,Вкл. В-311 от ТАПВ_дискреты_АПВ-503,,дискреты   АПВ-503,0
50,Вкл. положение фА_дискреты_Автоматика В-310,,дискреты   Автоматика В-310,0
51,Вкл. положение фВ_дискреты_Автоматика В-310,,дискреты   Автоматика В-310,0
52,Вкл. положение фС_дискреты_Автоматика В-310,,дискреты   Автоматика В-310,0
53,Срабатывание ЗНПФ_дискреты_Автоматика В-310,,дискреты   Автоматика В-310,0
54,Вкл. положение фА_дискреты_Автоматика В-311,,дискреты   Автоматика В-311,0
55,Вкл. положение фВ_дискреты_Автоматика В-311,,дискреты   Автоматика В-311,0
56,Вкл. положение фС_дискреты_Автоматика В-311,,дискреты   Автоматика В-311,0
57,Срабатывание ЗНПФ_дискреты_Автоматика В-311,,дискреты   Автоматика В-311,0
58,Сраб. чувств. ступени АОПН вкл. конца линии_дискреты_АОПН,,дискреты   АОПН,0
59,Сраб. груб. ступени АОПН вкл. конца линии_дискреты_АОПН,,дискреты   АОПН,0
60,Сраб. чувств. ступени АОПН откл. конца линии_дискреты_АОПН,,дискреты   АОПН,0
61,Сраб. груб. ступени АОПН откл. конца линии_дискреты_АОПН,,дискреты   АОПН,0
62,УРОВ АОПН В-310_дискреты_АОПН,,дискреты   АОПН,0
63,УРОВ АОПН В-311_дискреты_АОПН,,дискреты   АОПН,0
64,1 ком ПРМ АКАП_дискреты_ПРМ АКАП,,дискреты   ПРМ АКАП,0
65,Фиксация 0.5 цикла АР_дискреты_АЛАР,,дискреты   АЛАР,0
66,Сраб. вых. реле АЛАР_дискреты_АЛАР,,дискреты   АЛАР,0
67,Неиспр. цепей переменного напряжения_дискреты_АЛАР,,дискреты   АЛАР,0
68,Сраб. АЛАР 1ст.(ФССС)_дискреты_АЛАР,,дискреты   АЛАР,0
69,Сраб. АЛАР 2ст. (ФЦТ)_дискреты_АЛАР,,дискреты   АЛАР,0
70,Пуск 1 ст. ЗЗ Реактора_дискреты_Защита и УРОВ МР-29,,дискреты   Защита и УРОВ МР-29,0
71,Пуск 2 ст. ЗЗ Реактора_дискреты_Защита и УРОВ МР-29,,дискреты   Защита и УРОВ МР-29,0
72,Пуск.поп.диф.защ.фА. В. С_дискреты_Защита и УРОВ МР-29,,дискреты   Защита и УРОВ МР-29,0
73,2-ком.ПРМ.АКАП.ВЛ-29_дискреты_ПРМ АКАП,,дискреты   ПРМ АКАП,0
74,Пуск прод защ. фА фВ фС_дискреты_Защита и УРОВ МР-29,,дискреты   Защита и УРОВ МР-29,0
75,3-ком.ПРМ.АКАП.ВЛ-29_дискреты_ПРМ АКАП,,дискреты   ПРМ АКАП,0
76,16-ком.ПРМ.АКАП.ВЛ-29_дискреты_ПРМ АКАП,,дискреты   ПРМ АКАП,0
77,Работа УРОВ МР-29_дискреты_Защита и УРОВ МР-29,,дискреты   Защита и УРОВ МР-29,0
78,Работа вых. реле на откл. реактора_дискреты_Защита и УРОВ МР-29,,дискреты   Защита и УРОВ МР-29,0
79,Откл. положение ВМР-29_дискреты_Автоматика ВМР-29,,дискреты   Автоматика ВМР-29,0
80,Сраб. ЗНПФ реактора_дискреты_Автоматика ВМР-29,,дискреты   Автоматика ВМР-29,0
81,Фикс.действия автоматики на вкл. МР-29_дискреты_Автоматика ВМР-29,,дискреты   Автоматика ВМР-29,0
82,Фикс.действия автоматики на откл. МР-29_дискреты_Автоматика ВМР-29,,дискреты   Автоматика ВМР-29,0
83,Действие вых. реле на вкл. МР_дискреты_Доп. автоматика реактора,,дискреты   Доп. автоматика реактора,0
84,Действие УРОВ при сраб. доп. автом. реактора_дискреты_Доп. автоматика реактора,,дискреты   Доп. автоматика реактора,0
85,Действие вых. реле авт. на включение_дискреты_Автоматика управления реактором,,дискреты   Автоматика управления реактором,0
86,Действие вых. реле на отключение_дискреты_Автоматика управления реактором,,дискреты   Автоматика управления реактором,0
87,Вкл. реактора при действии защит линии_дискреты_Автоматика управления реактором,,дискреты   Автоматика управления реактором,0
88,Вкл. реактора от АОПН_дискреты_Автоматика управления реактором,,дискреты   Автоматика управления реактором,0
89,Вкл. реактора от АОПН Буденновска_дискреты_Автоматика управления реактором,,дискреты   Автоматика управления реактором,0
90,От контактов АРПМ_дискреты_Конт. пуск,,дискреты   Конт. пуск,0
91,От контактов чувств. ступени АОПН_дискреты_Конт. пуск,,дискреты   Конт. пуск,0
92,От реле фикс. 0_5 циклов АР_дискреты_Конт. пуск,,дискреты   Конт. пуск,0
93,Пуск АУРА по 4ком.ПРД АКАП_дискреты_Конт. пуск,,дискреты   Конт. пуск,0
94,Резерв1,0,Резервные,0
95,Резерв2,0,Резервные,0
96,Резерв3,0,Резервные,0
50
1
500,4056
04/07/2012,20:55:52.000000
04/07/2012,20:55:52.000000
ASCII
1
3,3
0,0
--- file type: INF ---

--- file type: HDR ---

--- file type: DAT ASCII ---
0000000001,0000000000,113.000000,-340.000000,205.000000,-17.000000,1.000000,6.000000,-6.000000,1.000000,0,0,0,0,0,0,0,0,0,0,0,0,0,0,0,0,0,0,0,0,0,0,0,0,0,0,0,0,0,0,0,0,0,0,0,0,0,0,0,0,0,0,0,0,0,0,0,0,0,1,1,1,0,1,1,1,0,0,0,0,0,0,0,0,0,0,0,0,0,0,0,0,0,0,0,0,0,0,0,0,0,0,0,0,0,0,0,0,0,0,0,0,0,0,0,0
0000000002,0000001999,287.000000,-314.000000,1.000000,-11.000000,-5.000000,7.000000,-1.000000,0.000000,0,0,0,0,0,0,0,0,0,0,0,0,0,0,0,0,0,0,0,0,0,0,0,0,0,0,0,0,0,0,0,0,0,0,0,0,0,0,0,0,0,0,0,0,0,0,0,0,0,1,1,1,0,1,1,1,0,0,0,0,0,0,0,0,0,0,0,0,0,0,0,0,0,0,0,0,0,0,0,0,0,0,0,0,0,0,0,0,0,0,0,0,0,0,0,0
0000000003,0000003998,346.000000,-154.000000,-200.000000,3.000000,-6.000000,6.000000,2.000000,0.000000,0,0,0,0,0,0,0,0,0,0,0,0,0,0,0,0,0,0,0,0,0,0,0,0,0,0,0,0,0,0,0,0,0,0,0,0,0,0,0,0,0,0,0,0,0,0,0,0,0,1,1,1,0,1,1,1,0,0,0,0,0,0,0,0,0,0,0,0,0,0,0,0,0,0,0,0,0,0,0,0,0,0,0,0,0,0,0,0,0,0,0,0,0,0,0,0
0000000004,0000005997,283.000000,55.000000,-333.000000,12.000000,-7.000000,3.000000,6.000000,0.000000,0,0,0,0,0,0,0,0,0,0,0,0,0,0,0,0,0,0,0,0,0,0,0,0,0,0,0,0,0,0,0,0,0,0,0,0,0,0,0,0,0,0,0,0,0,0,0,0,0,1,1,1,0,1,1,1,0,0,0,0,0,0,0,0,0,0,0,0,0,0,0,0,0,0,0,0,0,0,0,0,0,0,0,0,0,0,0,0,0,0,0,0,0,0,0,0
0000000005,0000007996,94.000000,250.000000,-335.000000,18.000000,-4.000000,-3.000000,8.000000,0.000000,0,0,0,0,0,0,0,0,0,0,0,0,0,0,0,0,0,0,0,0,0,0,0,0,0,0,0,0,0,0,0,0,0,0,0,0,0,0,0,0,0,0,0,0,0,0,0,0,0,1,1,1,0,1,1,1,0,0,0,0,0,0,0,0,0,0,0,0,0,0,0,0,0,0,0,0,0,0,0,0,0,0,0,0,0,0,0,0,0,0,0,0,0,0,0,0
0000000006,0000009995,-112.000000,341.000000,-204.000000,19.000000,0.000000,-5.000000,6.000000,0.000000,0,0,0,0,0,0,0,0,0,0,0,0,0,0,0,0,0,0,0,0,0,0,0,0,0,0,0,0,0,0,0,0,0,0,0,0,0,0,0,0,0,0,0,0,0,0,0,0,0,1,1,1,0,1,1,1,0,0,0,0,0,0,0,0,0,0,0,0,0,0,0,0,0,0,0,0,0,0,0,0,0,0,0,0,0,0,0,0,0,0,0,0,0,0,0,0
0000000007,0000011994,-287.000000,314.000000,0.000000,11.000000,6.000000,-7.000000,3.000000,1.000000,0,0,0,0,0,0,0,0,0,0,0,0,0,0,0,0,0,0,0,0,0,0,0,0,0,0,0,0,0,0,0,0,0,0,0,0,0,0,0,0,0,0,0,0,0,0,0,0,0,1,1,1,0,1,1,1,0,0,0,0,0,0,0,0,0,0,0,0,0,0,0,0,0,0,0,0,0,0,0,0,0,0,0,0,0,0,0,0,0,0,0,0,0,0,0,0
0000000008,0000013993,-345.000000,155.000000,201.000000,-1.000000,7.000000,-4.000000,-2.000000,0.000000,0,0,0,0,0,0,0,0,0,0,0,0,0,0,0,0,0,0,0,0,0,0,0,0,0,0,0,0,0,0,0,0,0,0,0,0,0,0,0,0,0,0,0,0,0,0,0,0,0,1,1,1,0,1,1,1,0,0,0,0,0,0,0,0,0,0,0,0,0,0,0,0,0,0,0,0,0,0,0,0,0,0,0,0,0,0,0,0,0,0,0,0,0,0,0,0
0000000009,0000015992,-283.000000,-54.000000,333.000000,-10.000000,7.000000,-1.000000,-6.000000,1.000000,0,0,0,0,0,0,0,0,0,0,0,0,0,0,0,0,0,0,0,0,0,0,0,0,0,0,0,0,0,0,0,0,0,0,0,0,0,0,0,0,0,0,0,0,0,0,0,0,0,1,1,1,0,1,1,1,0,0,0,0,0,0,0,0,0,0,0,0,0,0,0,0,0,0,0,0,0,0,0,0,0,0,0,0,0,0,0,0,0,0,0,0,0,0,0,0
0000000010,0000017991,-93.000000,-251.000000,335.000000,-18.000000,5.000000,3.000000,-7.000000,2.000000,0,0,0,0,0,0,0,0,0,0,0,0,0,0,0,0,0,0,0,0,0,0,0,0,0,0,0,0,0,0,0,0,0,0,0,0,0,0,0,0,0,0,0,0,0,0,0,0,0,1,1,1,0,1,1,1,0,0,0,0,0,0,0,0,0,0,0,0,0,0,0,0,0,0,0,0,0,0,0,0,0,0,0,0,0,0,0,0,0,0,0,0,0,0,0,0
0000000011,0000019990,114.000000,-341.000000,205.000000,-17.000000,1.000000,8.000000,-5.000000,1.000000,0,0,0,0,0,0,0,0,0,0,0,0,0,0,0,0,0,0,0,0,0,0,0,0,0,0,0,0,0,0,0,0,0,0,0,0,0,0,0,0,0,0,0,0,0,0,0,0,0,1,1,1,0,1,1,1,0,0,0,0,0,0,0,0,0,0,0,0,0,0,0,0,0,0,0,0,0,0,0,0,0,0,0,0,0,0,0,0,0,0,0,0,0,0,0,0
0000000012,0000021989,287.000000,-313.000000,1.000000,-11.000000,-4.000000,8.000000,-2.000000,0.000000,0,0,0,0,0,0,0,0,0,0,0,0,0,0,0,0,0,0,0,0,0,0,0,0,0,0,0,0,0,0,0,0,0,0,0,0,0,0,0,0,0,0,0,0,0,0,0,0,0,1,1,1,0,1,1,1,0,0,0,0,0,0,0,0,0,0,0,0,0,0,0,0,0,0,0,0,0,0,0,0,0,0,0,0,0,0,0,0,0,0,0,0,0,0,0,0
0000000013,0000023988,345.000000,-154.000000,-201.000000,2.000000,-6.000000,6.000000,3.000000,0.000000,0,0,0,0,0,0,0,0,0,0,0,0,0,0,0,0,0,0,0,0,0,0,0,0,0,0,0,0,0,0,0,0,0,0,0,0,0,0,0,0,0,0,0,0,0,0,0,0,0,1,1,1,0,1,1,1,0,0,0,0,0,0,0,0,0,0,0,0,0,0,0,0,0,0,0,0,0,0,0,0,0,0,0,0,0,0,0,0,0,0,0,0,0,0,0,0
0000000014,0000025987,284.000000,55.000000,-331.000000,11.000000,-6.000000,2.000000,6.000000,0.000000,0,0,0,0,0,0,0,0,0,0,0,0,0,0,0,0,0,0,0,0,0,0,0,0,0,0,0,0,0,0,0,0,0,0,0,0,0,0,0,0,0,0,0,0,0,0,0,0,0,1,1,1,0,1,1,1,0,0,0,0,0,0,0,0,0,0,0,0,0,0,0,0,0,0,0,0,0,0,0,0,0,0,0,0,0,0,0,0,0,0,0,0,0,0,0,0
0000000015,0000027986,95.000000,249.000000,-336.000000,18.000000,-3.000000,-3.000000,8.000000,0.000000,0,0,0,0,0,0,0,0,0,0,0,0,0,0,0,0,0,0,0,0,0,0,0,0,0,0,0,0,0,0,0,0,0,0,0,0,0,0,0,0,0,0,0,0,0,0,0,0,0,1,1,1,0,1,1,1,0,0,0,0,0,0,0,0,0,0,0,0,0,0,0,0,0,0,0,0,0,0,0,0,0,0,0,0,0,0,0,0,0,0,0,0,0,0,0,0
0000000016,0000029985,-113.000000,340.000000,-207.000000,18.000000,0.000000,-5.000000,6.000000,0.000000,0,0,0,0,0,0,0,0,0,0,0,0,0,0,0,0,0,0,0,0,0,0,0,0,0,0,0,0,0,0,0,0,0,0,0,0,0,0,0,0,0,0,0,0,0,0,0,0,0,1,1,1,0,1,1,1,0,0,0,0,0,0,0,0,0,0,0,0,0,0,0,0,0,0,0,0,0,0,0,0,0,0,0,0,0,0,0,0,0,0,0,0,0,0,0,0
0000000017,0000031984,-287.000000,315.000000,0.000000,11.000000,5.000000,-7.000000,4.000000,1.000000,0,0,0,0,0,0,0,0,0,0,0,0,0,0,0,0,0,0,0,0,0,0,0,0,0,0,0,0,0,0,0,0,0,0,0,0,0,0,0,0,0,0,0,0,0,0,0,0,0,1,1,1,0,1,1,1,0,0,0,0,0,0,0,0,0,0,0,0,0,0,0,0,0,0,0,0,0,0,0,0,0,0,0,0,0,0,0,0,0,0,0,0,0,0,0,0
0000000018,0000033983,-345.000000,154.000000,201.000000,-1.000000,6.000000,-4.000000,-2.000000,1.000000,0,0,0,0,0,0,0,0,0,0,0,0,0,0,0,0,0,0,0,0,0,0,0,0,0,0,0,0,0,0,0,0,0,0,0,0,0,0,0,0,0,0,0,0,0,0,0,0,0,1,1,1,0,1,1,1,0,0,0,0,0,0,0,0,0,0,0,0,0,0,0,0,0,0,0,0,0,0,0,0,0,0,0,0,0,0,0,0,0,0,0,0,0,0,0,0
0000000019,0000035982,-283.000000,-54.000000,333.000000,-11.000000,7.000000,-1.000000,-8.000000,1.000000,0,0,0,0,0,0,0,0,0,0,0,0,0,0,0,0,0,0,0,0,0,0,0,0,0,0,0,0,0,0,0,0,0,0,0,0,0,0,0,0,0,0,0,0,0,0,0,0,0,1,1,1,0,1,1,1,0,0,0,0,0,0,0,0,0,0,0,0,0,0,0,0,0,0,0,0,0,0,0,0,0,0,0,0,0,0,0,0,0,0,0,0,0,0,0,0
0000000020,0000037981,-95.000000,-249.000000,336.000000,-18.000000,4.000000,4.000000,-7.000000,1.000000,0,0,0,0,0,0,0,0,0,0,0,0,0,0,0,0,0,0,0,0,0,0,0,0,0,0,0,0,0,0,0,0,0,0,0,0,0,0,0,0,0,0,0,0,0,0,0,0,0,1,1,1,0,1,1,1,0,0,0,0,0,0,0,0,0,0,0,0,0,0,0,0,0,0,0,0,0,0,0,0,0,0,0,0,0,0,0,0,0,0,0,0,0,0,0,0
0000000021,0000039980,114.000000,-340.000000,205.000000,-17.000000,1.000000,6.000000,-5.000000,1.000000,0,0,0,0,0,0,0,0,0,0,0,0,0,0,0,0,0,0,0,0,0,0,0,0,0,0,0,0,0,0,0,0,0,0,0,0,0,0,0,0,0,0,0,0,0,0,0,0,0,1,1,1,0,1,1,1,0,0,0,0,0,0,0,0,0,0,0,0,0,0,0,0,0,0,0,0,0,0,0,0,0,0,0,0,0,0,0,0,0,0,0,0,0,0,0,0
0000000022,0000041979,287.000000,-314.000000,1.000000,-11.000000,-4.000000,8.000000,-1.000000,1.000000,0,0,0,0,0,0,0,0,0,0,0,0,0,0,0,0,0,0,0,0,0,0,0,0,0,0,0,0,0,0,0,0,0,0,0,0,0,0,0,0,0,0,0,0,0,0,0,0,0,1,1,1,0,1,1,1,0,0,0,0,0,0,0,0,0,0,0,0,0,0,0,0,0,0,0,0,0,0,0,0,0,0,0,0,0,0,0,0,0,0,0,0,0,0,0,0
0000000023,0000043978,346.000000,-154.000000,-200.000000,3.000000,-6.000000,6.000000,2.000000,0.000000,0,0,0,0,0,0,0,0,0,0,0,0,0,0,0,0,0,0,0,0,0,0,0,0,0,0,0,0,0,0,0,0,0,0,0,0,0,0,0,0,0,0,0,0,0,0,0,0,0,1,1,1,0,1,1,1,0,0,0,0,0,0,0,0,0,0,0,0,0,0,0,0,0,0,0,0,0,0,0,0,0,0,0,0,0,0,0,0,0,0,0,0,0,0,0,0
0000000024,0000045977,284.000000,55.000000,-333.000000,12.000000,-6.000000,3.000000,7.000000,-2.000000,0,0,0,0,0,0,0,0,0,0,0,0,0,0,0,0,0,0,0,0,0,0,0,0,0,0,0,0,0,0,0,0,0,0,0,0,0,0,0,0,0,0,0,0,0,0,0,0,0,1,1,1,0,1,1,1,0,0,0,0,0,0,0,0,0,0,0,0,0,0,0,0,0,0,0,0,0,0,0,0,0,0,0,0,0,0,0,0,0,0,0,0,0,0,0,0
0000000025,0000047976,95.000000,250.000000,-335.000000,18.000000,-4.000000,-2.000000,7.000000,0.000000,0,0,0,0,0,0,0,0,0,0,0,0,0,0,0,0,0,0,0,0,0,0,0,0,0,0,0,0,0,0,0,0,0,0,0,0,0,0,0,0,0,0,0,0,0,0,0,0,0,1,1,1,0,1,1,1,0,0,0,0,0,0,0,0,0,0,0,0,0,0,0,0,0,0,0,0,0,0,0,0,0,0,0,0,0,0,0,0,0,0,0,0,0,0,0,0
0000000026,0000049975,-113.000000,341.000000,-204.000000,18.000000,1.000000,-5.000000,6.000000,0.000000,0,0,0,0,0,0,0,0,0,0,0,0,0,0,0,0,0,0,0,0,0,0,0,0,0,0,0,0,0,0,0,0,0,0,0,0,0,0,0,0,0,0,0,0,0,0,0,0,0,1,1,1,0,1,1,1,0,0,0,0,0,0,0,0,0,0,0,0,0,0,0,0,0,0,0,0,0,0,0,0,0,0,0,0,0,0,0,0,0,0,0,0,0,0,0,0
0000000027,0000051974,-287.000000,314.000000,0.000000,11.000000,5.000000,-7.000000,3.000000,1.000000,0,0,0,0,0,0,0,0,0,0,0,0,0,0,0,0,0,0,0,0,0,0,0,0,0,0,0,0,0,0,0,0,0,0,0,0,0,0,0,0,0,0,0,0,0,0,0,0,0,1,1,1,0,1,1,1,0,0,0,0,0,0,0,0,0,0,0,0,0,0,0,0,0,0,0,0,0,0,0,0,0,0,0,0,0,0,0,0,0,0,0,0,0,0,0,0
0000000028,0000053973,-346.000000,155.000000,201.000000,-1.000000,7.000000,-5.000000,-2.000000,0.000000,0,0,0,0,0,0,0,0,0,0,0,0,0,0,0,0,0,0,0,0,0,0,0,0,0,0,0,0,0,0,0,0,0,0,0,0,0,0,0,0,0,0,0,0,0,0,0,0,0,1,1,1,0,1,1,1,0,0,0,0,0,0,0,0,0,0,0,0,0,0,0,0,0,0,0,0,0,0,0,0,0,0,0,0,0,0,0,0,0,0,0,0,0,0,0,0
0000000029,0000055972,-284.000000,-54.000000,333.000000,-11.000000,8.000000,-1.000000,-5.000000,1.000000,0,0,0,0,0,0,0,0,0,0,0,0,0,0,0,0,0,0,0,0,0,0,0,0,0,0,0,0,0,0,0,0,0,0,0,0,0,0,0,0,0,0,0,0,0,0,0,0,0,1,1,1,0,1,1,1,0,0,0,0,0,0,0,0,0,0,0,0,0,0,0,0,0,0,0,0,0,0,0,0,0,0,0,0,0,0,0,0,0,0,0,0,0,0,0,0
0000000030,0000057971,-94.000000,-249.000000,336.000000,-18.000000,5.000000,4.000000,-7.000000,0.000000,0,0,0,0,0,0,0,0,0,0,0,0,0,0,0,0,0,0,0,0,0,0,0,0,0,0,0,0,0,0,0,0,0,0,0,0,0,0,0,0,0,0,0,0,0,0,0,0,0,1,1,1,0,1,1,1,0,0,0,0,0,0,0,0,0,0,0,0,0,0,0,0,0,0,0,0,0,0,0,0,0,0,0,0,0,0,0,0,0,0,0,0,0,0,0,0
0000000031,0000059970,115.000000,-340.000000,206.000000,-18.000000,1.000000,7.000000,-5.000000,1.000000,0,0,0,0,0,0,0,0,0,0,0,0,0,0,0,0,0,0,0,0,0,0,0,0,0,0,0,0,0,0,0,0,0,0,0,0,0,0,0,0,0,0,0,0,0,0,0,0,0,1,1,1,0,1,1,1,0,0,0,0,0,0,0,0,0,0,0,0,0,0,0,0,0,0,0,0,0,0,0,0,0,0,0,0,0,0,0,0,0,0,0,0,0,0,0,0
0000000032,0000061969,287.000000,-314.000000,1.000000,-10.000000,-4.000000,8.000000,-2.000000,0.000000,0,0,0,0,0,0,0,0,0,0,0,0,0,0,0,0,0,0,0,0,0,0,0,0,0,0,0,0,0,0,0,0,0,0,0,0,0,0,0,0,0,0,0,0,0,0,0,0,0,1,1,1,0,1,1,1,0,0,0,0,0,0,0,0,0,0,0,0,0,0,0,0,0,0,0,0,0,0,0,0,0,0,0,0,0,0,0,0,0,0,0,0,0,0,0,0
0000000033,0000063968,345.000000,-153.000000,-200.000000,2.000000,-6.000000,6.000000,2.000000,0.000000,0,0,0,0,0,0,0,0,0,0,0,0,0,0,0,0,0,0,0,0,0,0,0,0,0,0,0,0,0,0,0,0,0,0,0,0,0,0,0,0,0,0,0,0,0,0,0,0,0,1,1,1,0,1,1,1,0,0,0,0,0,0,0,0,0,0,0,0,0,0,0,0,0,0,0,0,0,0,0,0,0,0,0,0,0,0,0,0,0,0,0,0,0,0,0,0
0000000034,0000065967,284.000000,54.000000,-333.000000,12.000000,-7.000000,3.000000,6.000000,0.000000,0,0,0,0,0,0,0,0,0,0,0,0,0,0,0,0,0,0,0,0,0,0,0,0,0,0,0,0,0,0,0,0,0,0,0,0,0,0,0,0,0,0,0,0,0,0,0,0,0,1,1,1,0,1,1,1,0,0,0,0,0,0,0,0,0,0,0,0,0,0,0,0,0,0,0,0,0,0,0,0,0,0,0,0,0,0,0,0,0,0,0,0,0,0,0,0
0000000035,0000067966,94.000000,250.000000,-335.000000,18.000000,-6.000000,-2.000000,8.000000,0.000000,0,0,0,0,0,0,0,0,0,0,0,0,0,0,0,0,0,0,0,0,0,0,0,0,0,0,0,0,0,0,0,0,0,0,0,0,0,0,0,0,0,0,0,0,0,0,0,0,0,1,1,1,0,1,1,1,0,0,0,0,0,0,0,0,0,0,0,0,0,0,0,0,0,0,0,0,0,0,0,0,0,0,0,0,0,0,0,0,0,0,0,0,0,0,0,0
0000000036,0000069965,-113.000000,341.000000,-204.000000,18.000000,0.000000,-6.000000,7.000000,0.000000,0,0,0,0,0,0,0,0,0,0,0,0,0,0,0,0,0,0,0,0,0,0,0,0,0,0,0,0,0,0,0,0,0,0,0,0,0,0,0,0,0,0,0,0,0,0,0,0,0,1,1,1,0,1,1,1,0,0,0,0,0,0,0,0,0,0,0,0,0,0,0,0,0,0,0,0,0,0,0,0,0,0,0,0,0,0,0,0,0,0,0,0,0,0,0,0
0000000037,0000071964,-287.000000,314.000000,0.000000,12.000000,5.000000,-7.000000,4.000000,0.000000,0,0,0,0,0,0,0,0,0,0,0,0,0,0,0,0,0,0,0,0,0,0,0,0,0,0,0,0,0,0,0,0,0,0,0,0,0,0,0,0,0,0,0,0,0,0,0,0,0,1,1,1,0,1,1,1,0,0,0,0,0,0,0,0,0,0,0,0,0,0,0,0,0,0,0,0,0,0,0,0,0,0,0,0,0,0,0,0,0,0,0,0,0,0,0,0
0000000038,0000073963,-345.000000,155.000000,201.000000,-1.000000,7.000000,-5.000000,-2.000000,1.000000,0,0,0,0,0,0,0,0,0,0,0,0,0,0,0,0,0,0,0,0,0,0,0,0,0,0,0,0,0,0,0,0,0,0,0,0,0,0,0,0,0,0,0,0,0,0,0,0,0,1,1,1,0,1,1,1,0,0,0,0,0,0,0,0,0,0,0,0,0,0,0,0,0,0,0,0,0,0,0,0,0,0,0,0,0,0,0,0,0,0,0,0,0,0,0,0
0000000039,0000075962,-283.000000,-54.000000,335.000000,-11.000000,7.000000,-1.000000,-7.000000,1.000000,0,0,0,0,0,0,0,0,0,0,0,0,0,0,0,0,0,0,0,0,0,0,0,0,0,0,0,0,0,0,0,0,0,0,0,0,0,0,0,0,0,0,0,0,0,0,0,0,0,1,1,1,0,1,1,1,0,0,0,0,0,0,0,0,0,0,0,0,0,0,0,0,0,0,0,0,0,0,0,0,0,0,0,0,0,0,0,0,0,0,0,0,0,0,0,0
0000000040,0000077961,-94.000000,-248.000000,336.000000,-17.000000,3.000000,4.000000,-7.000000,1.000000,0,0,0,0,0,0,0,0,0,0,0,0,0,0,0,0,0,0,0,0,0,0,0,0,0,0,0,0,0,0,0,0,0,0,0,0,0,0,0,0,0,0,0,0,0,0,0,0,0,1,1,1,0,1,1,1,0,0,0,0,0,0,0,0,0,0,0,0,0,0,0,0,0,0,0,0,0,0,0,0,0,0,0,0,0,0,0,0,0,0,0,0,0,0,0,0
