--- file type: CFG ---
ДАГЭНЕРГО ДЭС ВЛ-Дербентская,522,2013
16,16A,0D
1,Ua_330 kV_ВЛ-330-Дерб.,A,330 kV   ВЛ-330-Дерб.,kV,0.77781746,0,0,-512,512,3300.0000,1,P
2,Ub_330 kV_ВЛ-330-Дерб.,B,330 kV   ВЛ-330-Дерб.,kV,0.78216281,0,121,-512,512,3300.0000,1,P
3,Uc_330 kV_ВЛ-330-Дерб.,C,330 kV   ВЛ-330-Дерб.,kV,0.77781746,0,247,-512,512,3300.0000,1,P
4,3U0_330 kV_ВЛ-330-Дерб.,,330 kV   ВЛ-330-Дерб.,kV,0.96920205,0,376,-512,512,1907.5000,1,P
5,Ia_330 kV_ВЛ-330-Дерб.,A,330 kV   ВЛ-330-Дерб.,kA,0.00817465,0,681,-512,512,1000.0000,1,P
6,Ib_330 kV_ВЛ-330-Дерб.,B,330 kV   ВЛ-330-Дерб.,kA,0.00817465,0,985,-512,512,1000.0000,1,P
7,Ic_330 kV_ВЛ-330-Дерб.,C,330 kV   ВЛ-330-Дерб.,kA,0.00808123,0,936,-512,512,1000.0000,1,P
8,3I0_330 kV_ВЛ-330-Дерб.,,330 kV   ВЛ-330-Дерб.,kA,0.00812767,0,1145,-512,512,1000.0000,1,P
9,Ua_330 kV_ВЛ-330-09,A,330 kV   ВЛ-330-09,kV,0.76716242,0,991,-512,512,3300.0000,1,P
10,Ub_330 kV_ВЛ-330-09,B,330 kV   ВЛ-330-09,kV,0.77138922,0,1124,-512,512,3300.0000,1,P
11,Uc_330 kV_ВЛ-330-09,C,330 kV   ВЛ-330-09,kV,0.77352013,0,1239,-512,512,3300.0000,1,P
12,3U0_330 kV_ВЛ-330-09,,330 kV   ВЛ-330-09,kV,0.44960207,0,1374,-512,512,1907.5000,1,P
13,Ia_330 kV_ВЛ-330-09,A,330 kV   ВЛ-330-09,kA,0.01219150,0,1672,-512,512,1000.0000,1,P
14,Ib_330 kV_ВЛ-330-09,B,330 kV   ВЛ-330-09,kA,0.01219150,0,1946,-512,512,1000.0000,1,P
15,Ic_330 kV_ВЛ-330-09,C,330 kV   ВЛ-330-09,kA,0.01240538,0,1947,-512,512,1000.0000,1,P
16,3I0_330 kV_ВЛ-330-09,,330 kV   ВЛ-330-09,kA,0.01178511,0,2104,-512,512,1000.0000,1,P
50
1
500,4056
02/07/2018,23:52:14.000000
02/07/2018,23:52:14.000000
ASCII
1
3,3
0,0
--- file type: INF ---

--- file type: HDR ---

--- file type: DAT ASCII ---
0000000001,0000000000,-58.000000,-282.000000,323.000000,-3.000000,29.000000,-15.000000,-15.000000,0.000000,70.000000,-358.000000,259.000000,5.000000,-13.000000,14.000000,1.000000,-1.000000
0000000002,0000001999,164.000000,-362.000000,176.000000,2.000000,20.000000,4.000000,-26.000000,1.000000,242.000000,-356.000000,75.000000,8.000000,-18.000000,5.000000,14.000000,0.000000
0000000003,0000003998,308.000000,-295.000000,-46.000000,2.000000,11.000000,17.000000,-25.000000,0.000000,363.000000,-221.000000,-163.000000,1.000000,-11.000000,-5.000000,17.000000,0.000000
0000000004,0000005997,359.000000,-125.000000,-235.000000,1.000000,-10.000000,29.000000,-16.000000,0.000000,329.000000,-8.000000,-321.000000,3.000000,0.000000,-16.000000,16.000000,1.000000
0000000005,0000007996,253.000000,117.000000,-354.000000,2.000000,-23.000000,23.000000,3.000000,1.000000,166.000000,210.000000,-368.000000,1.000000,11.000000,-20.000000,7.000000,1.000000
0000000006,0000009995,57.000000,285.000000,-323.000000,3.000000,-28.000000,13.000000,16.000000,1.000000,-70.000000,356.000000,-261.000000,-6.000000,13.000000,-14.000000,-2.000000,0.000000
0000000007,0000011994,-162.000000,362.000000,-176.000000,-1.000000,-21.000000,-7.000000,29.000000,1.000000,-243.000000,355.000000,-73.000000,-8.000000,18.000000,-6.000000,-15.000000,0.000000
0000000008,0000013993,-310.000000,296.000000,48.000000,-2.000000,-10.000000,-18.000000,26.000000,1.000000,-364.000000,222.000000,163.000000,0.000000,11.000000,5.000000,-17.000000,0.000000
0000000009,0000015992,-360.000000,127.000000,234.000000,0.000000,11.000000,-30.000000,16.000000,0.000000,-329.000000,8.000000,320.000000,-2.000000,1.000000,17.000000,-16.000000,1.000000
0000000010,0000017991,-252.000000,-116.000000,354.000000,-1.000000,23.000000,-23.000000,-1.000000,1.000000,-168.000000,-211.000000,368.000000,-1.000000,-11.000000,20.000000,-7.000000,1.000000
0000000011,0000019990,-58.000000,-283.000000,324.000000,-3.000000,29.000000,-14.000000,-14.000000,0.000000,70.000000,-358.000000,260.000000,6.000000,-13.000000,14.000000,1.000000,0.000000
0000000012,0000021989,162.000000,-362.000000,176.000000,2.000000,20.000000,6.000000,-25.000000,0.000000,241.000000,-355.000000,75.000000,8.000000,-18.000000,5.000000,15.000000,0.000000
0000000013,0000023988,308.000000,-295.000000,-47.000000,2.000000,11.000000,17.000000,-25.000000,0.000000,363.000000,-222.000000,-164.000000,1.000000,-11.000000,-5.000000,17.000000,0.000000
0000000014,0000025987,360.000000,-124.000000,-235.000000,1.000000,-10.000000,29.000000,-15.000000,1.000000,329.000000,-8.000000,-320.000000,3.000000,0.000000,-16.000000,15.000000,0.000000
0000000015,0000027986,253.000000,117.000000,-353.000000,1.000000,-22.000000,22.000000,3.000000,1.000000,165.000000,210.000000,-368.000000,1.000000,10.000000,-20.000000,7.000000,0.000000
0000000016,0000029985,58.000000,284.000000,-324.000000,3.000000,-29.000000,13.000000,16.000000,1.000000,-69.000000,356.000000,-262.000000,-5.000000,13.000000,-14.000000,-2.000000,1.000000
0000000017,0000031984,-161.000000,363.000000,-176.000000,-2.000000,-22.000000,-7.000000,29.000000,1.000000,-244.000000,355.000000,-74.000000,-8.000000,18.000000,-5.000000,-14.000000,1.000000
0000000018,0000033983,-310.000000,297.000000,47.000000,-2.000000,-10.000000,-18.000000,26.000000,1.000000,-364.000000,222.000000,163.000000,0.000000,11.000000,6.000000,-16.000000,0.000000
0000000019,0000035982,-360.000000,126.000000,234.000000,0.000000,11.000000,-30.000000,18.000000,0.000000,-330.000000,7.000000,319.000000,-3.000000,1.000000,16.000000,-16.000000,0.000000
0000000020,0000037981,-253.000000,-116.000000,354.000000,-1.000000,22.000000,-24.000000,-2.000000,0.000000,-169.000000,-210.000000,369.000000,-1.000000,-11.000000,20.000000,-7.000000,0.000000
0000000021,0000039980,-59.000000,-282.000000,323.000000,-3.000000,29.000000,-14.000000,-15.000000,0.000000,70.000000,-357.000000,260.000000,6.000000,-13.000000,15.000000,1.000000,0.000000
0000000022,0000041979,162.000000,-362.000000,176.000000,2.000000,21.000000,6.000000,-26.000000,0.000000,242.000000,-356.000000,75.000000,8.000000,-18.000000,5.000000,14.000000,0.000000
0000000023,0000043978,308.000000,-295.000000,-46.000000,3.000000,10.000000,17.000000,-25.000000,0.000000,363.000000,-221.000000,-162.000000,1.000000,-11.000000,-5.000000,17.000000,1.000000
0000000024,0000045977,359.000000,-125.000000,-234.000000,1.000000,-10.000000,29.000000,-16.000000,0.000000,329.000000,-8.000000,-320.000000,3.000000,-1.000000,-17.000000,16.000000,0.000000
0000000025,0000047976,254.000000,117.000000,-353.000000,1.000000,-22.000000,23.000000,3.000000,0.000000,166.000000,210.000000,-368.000000,1.000000,11.000000,-20.000000,7.000000,1.000000
0000000026,0000049975,58.000000,284.000000,-324.000000,3.000000,-28.000000,13.000000,16.000000,1.000000,-69.000000,357.000000,-261.000000,-6.000000,13.000000,-14.000000,-2.000000,1.000000
0000000027,0000051974,-162.000000,363.000000,-176.000000,-1.000000,-21.000000,-6.000000,28.000000,1.000000,-244.000000,356.000000,-74.000000,-8.000000,18.000000,-5.000000,-15.000000,0.000000
0000000028,0000053973,-311.000000,297.000000,47.000000,-2.000000,-10.000000,-18.000000,26.000000,0.000000,-364.000000,223.000000,162.000000,0.000000,11.000000,5.000000,-17.000000,0.000000
0000000029,0000055972,-360.000000,127.000000,234.000000,0.000000,10.000000,-31.000000,17.000000,0.000000,-330.000000,8.000000,320.000000,-4.000000,0.000000,16.000000,-16.000000,0.000000
0000000030,0000057971,-253.000000,-116.000000,354.000000,-1.000000,22.000000,-24.000000,-3.000000,0.000000,-168.000000,-210.000000,369.000000,-1.000000,-11.000000,20.000000,-7.000000,0.000000
0000000031,0000059970,-59.000000,-282.000000,325.000000,-3.000000,30.000000,-14.000000,-14.000000,0.000000,71.000000,-357.000000,260.000000,6.000000,-13.000000,14.000000,1.000000,0.000000
0000000032,0000061969,163.000000,-362.000000,176.000000,2.000000,20.000000,6.000000,-26.000000,-1.000000,242.000000,-355.000000,76.000000,8.000000,-18.000000,7.000000,15.000000,0.000000
0000000033,0000063968,308.000000,-296.000000,-46.000000,2.000000,10.000000,17.000000,-25.000000,0.000000,363.000000,-222.000000,-164.000000,1.000000,-11.000000,-5.000000,17.000000,0.000000
0000000034,0000065967,360.000000,-126.000000,-235.000000,1.000000,-12.000000,29.000000,-16.000000,0.000000,329.000000,-8.000000,-320.000000,3.000000,-1.000000,-17.000000,16.000000,0.000000
0000000035,0000067966,253.000000,116.000000,-354.000000,1.000000,-24.000000,21.000000,4.000000,1.000000,166.000000,210.000000,-368.000000,1.000000,11.000000,-20.000000,7.000000,-1.000000
0000000036,0000069965,58.000000,284.000000,-324.000000,3.000000,-28.000000,13.000000,16.000000,1.000000,-69.000000,356.000000,-262.000000,-6.000000,13.000000,-14.000000,-2.000000,1.000000
0000000037,0000071964,-161.000000,363.000000,-176.000000,-1.000000,-21.000000,-6.000000,30.000000,1.000000,-244.000000,355.000000,-76.000000,-8.000000,19.000000,-5.000000,-14.000000,0.000000
0000000038,0000073963,-311.000000,297.000000,47.000000,-2.000000,-10.000000,-18.000000,26.000000,0.000000,-365.000000,222.000000,162.000000,0.000000,12.000000,6.000000,-17.000000,0.000000
0000000039,0000075962,-360.000000,128.000000,234.000000,0.000000,11.000000,-30.000000,17.000000,0.000000,-330.000000,7.000000,320.000000,-2.000000,1.000000,16.000000,-16.000000,0.000000
0000000040,0000077961,-253.000000,-116.000000,354.000000,-1.000000,22.000000,-24.000000,-2.000000,0.000000,-170.000000,-210.000000,368.000000,-1.000000,-11.000000,20.000000,-8.000000,0.000000
0000000041,0000079960,-59.000000,-282.000000,324.000000,-3.000000,29.000000,-15.000000,-15.000000,0.000000,70.000000,-357.000000,261.000000,6.000000,-13.000000,14.000000,1.000000,0.000000
0000000042,0000081959,162.000000,-362.000000,177.000000,0.000000,20.000000,5.000000,-27.000000,0.000000,241.000000,-356.000000,76.000000,8.000000,-18.000000,5.000000,14.000000,0.000000
0000000043,0000083958,308.000000,-295.000000,-45.000000,2.000000,10.000000,17.000000,-25.000000,1.000000,363.000000,-222.000000,-162.000000,1.000000,-12.000000,-6.000000,17.000000,0.000000
0000000044,0000085957,360.000000,-125.000000,-234.000000,1.000000,-10.000000,30.000000,-15.000000,1.000000,329.000000,-8.000000,-320.000000,3.000000,0.000000,-16.000000,16.000000,1.000000
0000000045,0000087956,254.000000,117.000000,-354.000000,1.000000,-23.000000,24.000000,3.000000,1.000000,167.000000,210.000000,-368.000000,1.000000,11.000000,-20.000000,8.000000,1.000000
0000000046,0000089955,59.000000,284.000000,-325.000000,3.000000,-28.000000,14.000000,17.000000,0.000000,-69.000000,356.000000,-262.000000,-6.000000,13.000000,-14.000000,-2.000000,1.000000
0000000047,0000091954,-162.000000,363.000000,-177.000000,-1.000000,-21.000000,-6.000000,29.000000,1.000000,-244.000000,355.000000,-74.000000,-8.000000,18.000000,-5.000000,-14.000000,0.000000
0000000048,0000093953,-310.000000,297.000000,47.000000,-2.000000,-10.000000,-18.000000,26.000000,-1.000000,-365.000000,222.000000,162.000000,0.000000,12.000000,6.000000,-17.000000,0.000000
0000000049,0000095952,-360.000000,127.000000,233.000000,0.000000,11.000000,-30.000000,17.000000,0.000000,-330.000000,8.000000,319.000000,-2.000000,1.000000,16.000000,-17.000000,0.000000
0000000050,0000097951,-253.000000,-116.000000,353.000000,-1.000000,22.000000,-24.000000,-2.000000,0.000000,-169.000000,-210.000000,369.000000,-1.000000,-11.000000,20.000000,-8.000000,0.000000
0000000051,0000099950,-60.000000,-282.000000,325.000000,-3.000000,29.000000,-14.000000,-15.000000,0.000000,70.000000,-356.000000,261.000000,6.000000,-13.000000,14.000000,1.000000,0.000000
0000000052,0000101949,162.000000,-362.000000,177.000000,1.000000,21.000000,5.000000,-27.000000,0.000000,242.000000,-356.000000,76.000000,8.000000,-18.000000,5.000000,14.000000,0.000000
0000000053,0000103948,306.000000,-297.000000,-45.000000,3.000000,10.000000,17.000000,-25.000000,1.000000,363.000000,-222.000000,-163.000000,1.000000,-12.000000,-5.000000,17.000000,1.000000
0000000054,0000105947,360.000000,-126.000000,-235.000000,1.000000,-10.000000,29.000000,-15.000000,0.000000,329.000000,-8.000000,-320.000000,1.000000,0.000000,-16.000000,16.000000,0.000000
0000000055,0000107946,254.000000,116.000000,-353.000000,1.000000,-22.000000,23.000000,3.000000,1.000000,166.000000,210.000000,-368.000000,1.000000,11.000000,-20.000000,7.000000,1.000000
0000000056,0000109945,58.000000,285.000000,-323.000000,3.000000,-28.000000,13.000000,17.000000,1.000000,-69.000000,356.000000,-262.000000,-6.000000,13.000000,-15.000000,-2.000000,0.000000
0000000057,0000111944,-162.000000,363.000000,-177.000000,-1.000000,-21.000000,-7.000000,28.000000,0.000000,-243.000000,356.000000,-75.000000,-8.000000,18.000000,-5.000000,-15.000000,0.000000
0000000058,0000113943,-309.000000,297.000000,47.000000,-2.000000,-10.000000,-18.000000,26.000000,0.000000,-364.000000,223.000000,162.000000,0.000000,11.000000,6.000000,-17.000000,0.000000
0000000059,0000115942,-360.000000,128.000000,234.000000,0.000000,9.000000,-31.000000,18.000000,1.000000,-331.000000,9.000000,320.000000,-3.000000,0.000000,16.000000,-16.000000,0.000000
0000000060,0000117941,-254.000000,-116.000000,354.000000,-1.000000,22.000000,-24.000000,-2.000000,1.000000,-169.000000,-209.000000,368.000000,-2.000000,-12.000000,19.000000,-7.000000,-1.000000
0000000061,0000119940,-59.000000,-282.000000,324.000000,-3.000000,29.000000,-15.000000,-14.000000,0.000000,70.000000,-357.000000,260.000000,6.000000,-14.000000,14.000000,1.000000,0.000000
0000000062,0000121939,163.000000,-362.000000,176.000000,1.000000,20.000000,6.000000,-25.000000,0.000000,241.000000,-356.000000,76.000000,8.000000,-18.000000,5.000000,15.000000,0.000000
0000000063,0000123938,307.000000,-296.000000,-45.000000,2.000000,10.000000,17.000000,-25.000000,0.000000,362.000000,-222.000000,-162.000000,1.000000,-12.000000,-5.000000,17.000000,0.000000
0000000064,0000125937,360.000000,-125.000000,-234.000000,1.000000,-10.000000,29.000000,-16.000000,1.000000,329.000000,-9.000000,-320.000000,3.000000,0.000000,-16.000000,16.000000,0.000000
0000000065,0000127936,254.000000,116.000000,-354.000000,1.000000,-22.000000,23.000000,4.000000,0.000000,165.000000,210.000000,-369.000000,1.000000,11.000000,-20.000000,7.000000,1.000000
0000000066,0000129935,58.000000,284.000000,-324.000000,3.000000,-28.000000,13.000000,16.000000,1.000000,-68.000000,355.000000,-262.000000,-6.000000,14.000000,-14.000000,-2.000000,0.000000
0000000067,0000131934,-161.000000,362.000000,-177.000000,-2.000000,-21.000000,-6.000000,28.000000,1.000000,-243.000000,356.000000,-75.000000,-8.000000,18.000000,-5.000000,-15.000000,0.000000
0000000068,0000133933,-310.000000,297.000000,47.000000,-2.000000,-10.000000,-18.000000,26.000000,1.000000,-365.000000,223.000000,164.000000,0.000000,11.000000,6.000000,-17.000000,0.000000
0000000069,0000135932,-361.000000,120.000000,239.000000,20.000000,9.000000,-17.000000,11.000000,4.000000,-297.000000,-47.000000,276.000000,-60.000000,22.000000,2.000000,-32.000000,0.000000
0000000070,0000137931,-119.000000,-111.000000,217.000000,5.000000,-60.000000,-10.000000,93.000000,5.000000,-63.000000,-157.000000,218.000000,1.000000,60.000000,30.000000,-94.000000,-2.000000
0000000071,0000139930,-54.000000,-191.000000,271.000000,-13.000000,-67.000000,-72.000000,145.000000,4.000000,-19.000000,-267.000000,258.000000,0.000000,22.000000,72.000000,-96.000000,-2.000000
0000000072,0000141929,104.000000,-295.000000,163.000000,1.000000,-8.000000,-121.000000,137.000000,3.000000,219.000000,-290.000000,57.000000,0.000000,-19.000000,98.000000,-84.000000,-3.000000
0000000073,0000143928,251.000000,-239.000000,-21.000000,0.000000,47.000000,-148.000000,108.000000,1.000000,252.000000,-182.000000,-73.000000,-15.000000,-62.000000,101.000000,-39.000000,-2.000000
0000000074,0000145927,244.000000,-115.000000,-138.000000,5.000000,117.000000,-131.000000,14.000000,0.000000,248.000000,-38.000000,-219.000000,11.000000,-96.000000,66.000000,28.000000,-1.000000
0000000075,0000147926,222.000000,54.000000,-261.000000,0.000000,134.000000,-64.000000,-65.000000,-1.000000,146.000000,141.000000,-278.000000,8.000000,-87.000000,10.000000,69.000000,1.000000
0000000076,0000149925,55.000000,202.000000,-242.000000,1.000000,110.000000,22.000000,-124.000000,-1.000000,-29.000000,251.000000,-212.000000,9.000000,-54.000000,-49.000000,93.000000,3.000000
0000000077,0000151924,-91.000000,264.000000,-164.000000,5.000000,44.000000,100.000000,-129.000000,0.000000,-155.000000,273.000000,-96.000000,-1.000000,8.000000,-89.000000,71.000000,3.000000
0000000078,0000153923,-212.000000,240.000000,-5.000000,1.000000,-45.000000,137.000000,-79.000000,1.000000,-261.000000,193.000000,84.000000,-2.000000,61.000000,-93.000000,22.000000,3.000000
0000000079,0000155922,-264.000000,119.000000,148.000000,1.000000,-107.000000,119.000000,1.000000,2.000000,-244.000000,34.000000,204.000000,-2.000000,92.000000,-59.000000,-39.000000,2.000000
0000000080,0000157921,-202.000000,-48.000000,242.000000,-4.000000,-134.000000,57.000000,85.000000,3.000000,-148.000000,-127.000000,270.000000,-8.000000,86.000000,0.000000,-85.000000,0.000000
0000000081,0000159920,-78.000000,-187.000000,256.000000,-4.000000,-100.000000,-32.000000,135.000000,2.000000,3.000000,-244.000000,231.000000,-8.000000,43.000000,59.000000,-100.000000,-2.000000
0000000082,0000161919,83.000000,-265.000000,168.000000,-2.000000,-29.000000,-104.000000,132.000000,2.000000,155.000000,-275.000000,99.000000,-2.000000,-20.000000,94.000000,-74.000000,-2.000000
0000000083,0000163918,207.000000,-244.000000,19.000000,-2.000000,56.000000,-135.000000,78.000000,1.000000,244.000000,-202.000000,-61.000000,1.000000,-74.000000,93.000000,-17.000000,-2.000000
0000000084,0000165917,255.000000,-130.000000,-132.000000,1.000000,122.000000,-110.000000,-13.000000,-1.000000,248.000000,-51.000000,-202.000000,7.000000,-102.000000,51.000000,49.000000,0.000000
0000000085,0000167916,214.000000,35.000000,-244.000000,3.000000,140.000000,-38.000000,-99.000000,-2.000000,156.000000,119.000000,-271.000000,9.000000,-92.000000,-12.000000,95.000000,3.000000
0000000086,0000169915,82.000000,184.000000,-256.000000,4.000000,105.000000,52.000000,-148.000000,-2.000000,1.000000,242.000000,-233.000000,7.000000,-46.000000,-72.000000,108.000000,2.000000
0000000087,0000171914,-74.000000,264.000000,-177.000000,3.000000,29.000000,123.000000,-140.000000,-1.000000,-147.000000,274.000000,-107.000000,2.000000,20.000000,-106.000000,79.000000,3.000000
0000000088,0000173913,-202.000000,246.000000,-23.000000,1.000000,-58.000000,151.000000,-82.000000,0.000000,-248.000000,204.000000,62.000000,0.000000,75.000000,-104.000000,21.000000,3.000000
0000000089,0000175912,-258.000000,131.000000,133.000000,0.000000,-122.000000,123.000000,6.000000,1.000000,-246.000000,49.000000,199.000000,-4.000000,105.000000,-63.000000,-44.000000,1.000000
0000000090,0000177911,-209.000000,-36.000000,239.000000,-3.000000,-145.000000,54.000000,90.000000,2.000000,-156.000000,-117.000000,267.000000,-9.000000,95.000000,1.000000,-92.000000,0.000000
0000000091,0000179910,-84.000000,-178.000000,254.000000,-4.000000,-106.000000,-38.000000,140.000000,2.000000,-4.000000,-236.000000,232.000000,-8.000000,47.000000,64.000000,-106.000000,-2.000000
0000000092,0000181909,72.000000,-258.000000,175.000000,-3.000000,-31.000000,-111.000000,136.000000,0.000000,143.000000,-270.000000,108.000000,-3.000000,-20.000000,101.000000,-77.000000,-3.000000
0000000093,0000183908,196.000000,-242.000000,27.000000,-2.000000,59.000000,-142.000000,78.000000,0.000000,238.000000,-204.000000,-54.000000,2.000000,-78.000000,99.000000,-17.000000,-2.000000
0000000094,0000185907,251.000000,-136.000000,-124.000000,2.000000,126.000000,-115.000000,-16.000000,-2.000000,244.000000,-57.000000,-193.000000,6.000000,-108.000000,55.000000,51.000000,0.000000
0000000095,0000187906,211.000000,29.000000,-235.000000,3.000000,145.000000,-41.000000,-105.000000,-2.000000,157.000000,112.000000,-266.000000,9.000000,-97.000000,-9.000000,100.000000,2.000000
0000000096,0000189905,87.000000,176.000000,-255.000000,4.000000,108.000000,52.000000,-155.000000,-2.000000,9.000000,235.000000,-234.000000,8.000000,-48.000000,-74.000000,114.000000,3.000000
